CITIFILE A.01.01
#Momentum: B.11.40.482 (*) built: Dec  2 2014 
#Momentum Date and Time: Mon Nov 09 15:41:12 2015

NAME Momentum.SP

#  mode: MW    reference: S_50

CONSTANT NBR_OF_PORTS 4

CONSTANT NORMALIZATION 1

VAR freq MAG 97

DATA S[1,1] RI
DATA S[1,2] RI
DATA S[1,3] RI
DATA S[1,4] RI
DATA S[2,1] RI
DATA S[2,2] RI
DATA S[2,3] RI
DATA S[2,4] RI
DATA S[3,1] RI
DATA S[3,2] RI
DATA S[3,3] RI
DATA S[3,4] RI
DATA S[4,1] RI
DATA S[4,2] RI
DATA S[4,3] RI
DATA S[4,4] RI
DATA PORTZ[1] RI
DATA PORTZ[2] RI
DATA PORTZ[3] RI
DATA PORTZ[4] RI

VAR_LIST_BEGIN
	 1500000000
	 1502083333
	 1504166667
	 1506250000
	 1508333333
	 1510416667
	 1512500000
	 1514583333
	 1516666667
	 1518750000
	 1520833333
	 1522916667
	 1525000000
	 1527083333
	 1529166667
	 1531250000
	 1533333334
	 1535416667
	 1537500000
	 1539583334
	 1541666667
	 1543750000
	 1545833334
	 1547916667
	 1550000000
	 1552083334
	 1554166667
	 1556250000
	 1558333334
	 1560416667
	 1562500000
	 1564583334
	 1566666667
	 1568750000
	 1570833334
	 1572916667
	 1575000000
	 1577083334
	 1579166667
	 1581250000
	 1583333334
	 1585416667
	 1587500000
	 1589583333
	 1591666667
	 1593750000
	 1595833333
	 1597916667
	 1600000000
	 1602083333
	 1604166667
	 1606250000
	 1608333333
	 1610416667
	 1612500000
	 1614583333
	 1616666667
	 1618750000
	 1620833333
	 1622916666
	 1625000000
	 1627083333
	 1629166666
	 1631250000
	 1633333333
	 1635416666
	 1637500000
	 1639583333
	 1641666666
	 1643750000
	 1645833333
	 1647916666
	 1650000000
	 1652083333
	 1654166666
	 1656250000
	 1658333333
	 1660416666
	 1662500000
	 1664583333
	 1666666667
	 1668750000
	 1670833333
	 1672916667
	 1675000000
	 1677083333
	 1679166667
	 1681250000
	 1683333333
	 1685416667
	 1687500000
	 1689583333
	 1691666667
	 1693750000
	 1695833333
	 1697916667
	 1700000000
VAR_LIST_END

BEGIN
	 0.13826,	 0.0064264
	 0.13581,	 0.0057245
	 0.13336,	 0.0050518
	 0.1309,	 0.0044084
	 0.12845,	 0.0037939
	 0.12599,	 0.0032083
	 0.12352,	 0.0026514
	 0.12106,	 0.0021232
	 0.1186,	 0.0016234
	 0.11613,	 0.001152
	 0.11366,	 0.00070886
	 0.1112,	 0.00029376
	 0.10873,	-9.3392e-005
	 0.10627,	-0.00045274
	 0.1038,	-0.00078441
	 0.10133,	-0.0010885
	 0.098875,	-0.0013653
	 0.096411,	-0.0016147
	 0.093949,	-0.0018371
	 0.091488,	-0.0020324
	 0.089029,	-0.0022009
	 0.086572,	-0.0023427
	 0.084117,	-0.0024579
	 0.081665,	-0.0025466
	 0.079215,	-0.002609
	 0.076768,	-0.0026452
	 0.074323,	-0.0026554
	 0.071882,	-0.0026395
	 0.069444,	-0.0025979
	 0.067009,	-0.0025306
	 0.064578,	-0.0024378
	 0.062151,	-0.0023194
	 0.059728,	-0.0021758
	 0.057309,	-0.0020069
	 0.054894,	-0.001813
	 0.052484,	-0.0015941
	 0.050078,	-0.0013503
	 0.047676,	-0.0010817
	 0.04528,	-0.00078851
	 0.042889,	-0.00047075
	 0.040503,	-0.00012854
	 0.038122,	 0.00023801
	 0.035746,	 0.00062881
	 0.033376,	 0.0010438
	 0.031012,	 0.0014828
	 0.028653,	 0.0019458
	 0.026301,	 0.0024327
	 0.023954,	 0.0029434
	 0.021614,	 0.0034778
	 0.019279,	 0.0040358
	 0.016952,	 0.0046174
	 0.01463,	 0.0052225
	 0.012316,	 0.005851
	 0.010008,	 0.0065029
	 0.0077067,	 0.0071781
	 0.0054126,	 0.0078765
	 0.0031256,	 0.0085981
	 0.0008457,	 0.0093427
	-0.0014269,	 0.01011
	-0.003692,	 0.010901
	-0.0059497,	 0.011715
	-0.0081998,	 0.012552
	-0.010442,	 0.013411
	-0.012677,	 0.014293
	-0.014903,	 0.015198
	-0.017122,	 0.016126
	-0.019332,	 0.017077
	-0.021534,	 0.01805
	-0.023728,	 0.019046
	-0.025913,	 0.020065
	-0.02809,	 0.021106
	-0.030257,	 0.02217
	-0.032416,	 0.023257
	-0.034567,	 0.024366
	-0.036708,	 0.025498
	-0.038839,	 0.026652
	-0.040962,	 0.027829
	-0.043075,	 0.029028
	-0.045179,	 0.030251
	-0.047273,	 0.031495
	-0.049357,	 0.032763
	-0.051431,	 0.034053
	-0.053495,	 0.035365
	-0.055549,	 0.0367
	-0.057593,	 0.038058
	-0.059626,	 0.039439
	-0.061649,	 0.040842
	-0.063661,	 0.042268
	-0.065662,	 0.043717
	-0.067651,	 0.045189
	-0.06963,	 0.046683
	-0.071598,	 0.0482
	-0.073553,	 0.04974
	-0.075498,	 0.051303
	-0.07743,	 0.05289
	-0.07935,	 0.054499
	-0.081258,	 0.056131
END
BEGIN
	-0.67907,	-0.091463
	-0.68059,	-0.086916
	-0.68206,	-0.082342
	-0.68349,	-0.077743
	-0.68487,	-0.073118
	-0.68622,	-0.068469
	-0.68751,	-0.063796
	-0.68877,	-0.059099
	-0.68998,	-0.054378
	-0.69114,	-0.049636
	-0.69226,	-0.044871
	-0.69333,	-0.040085
	-0.69435,	-0.035278
	-0.69533,	-0.03045
	-0.69626,	-0.025604
	-0.69714,	-0.020738
	-0.69798,	-0.015853
	-0.69876,	-0.010951
	-0.69949,	-0.0060319
	-0.70018,	-0.0010962
	-0.70081,	 0.0038553
	-0.7014,	 0.008822
	-0.70193,	 0.013803
	-0.70241,	 0.018798
	-0.70284,	 0.023806
	-0.70322,	 0.028826
	-0.70355,	 0.033858
	-0.70383,	 0.038901
	-0.70405,	 0.043954
	-0.70422,	 0.049017
	-0.70433,	 0.054088
	-0.7044,	 0.059167
	-0.70441,	 0.064254
	-0.70436,	 0.069347
	-0.70426,	 0.074445
	-0.70411,	 0.079549
	-0.7039,	 0.084656
	-0.70364,	 0.089767
	-0.70333,	 0.094881
	-0.70296,	 0.099996
	-0.70253,	 0.10511
	-0.70205,	 0.11022
	-0.70152,	 0.11534
	-0.70093,	 0.12045
	-0.70028,	 0.12557
	-0.69958,	 0.13067
	-0.69882,	 0.13578
	-0.69801,	 0.14088
	-0.69715,	 0.14597
	-0.69623,	 0.15106
	-0.69525,	 0.15615
	-0.69422,	 0.16122
	-0.69314,	 0.16628
	-0.692,	 0.17134
	-0.6908,	 0.17638
	-0.68955,	 0.18142
	-0.68825,	 0.18644
	-0.68689,	 0.19145
	-0.68548,	 0.19644
	-0.68401,	 0.20143
	-0.68249,	 0.20639
	-0.68092,	 0.21134
	-0.67929,	 0.21627
	-0.67761,	 0.22119
	-0.67588,	 0.22609
	-0.6741,	 0.23097
	-0.67226,	 0.23583
	-0.67037,	 0.24066
	-0.66843,	 0.24548
	-0.66644,	 0.25027
	-0.6644,	 0.25505
	-0.66231,	 0.25979
	-0.66016,	 0.26452
	-0.65797,	 0.26922
	-0.65573,	 0.27389
	-0.65344,	 0.27854
	-0.6511,	 0.28316
	-0.64872,	 0.28775
	-0.64628,	 0.29231
	-0.6438,	 0.29685
	-0.64127,	 0.30135
	-0.6387,	 0.30583
	-0.63608,	 0.31027
	-0.63342,	 0.31468
	-0.63071,	 0.31906
	-0.62795,	 0.32341
	-0.62516,	 0.32773
	-0.62232,	 0.33201
	-0.61944,	 0.33625
	-0.61651,	 0.34046
	-0.61355,	 0.34464
	-0.61054,	 0.34877
	-0.6075,	 0.35288
	-0.60441,	 0.35694
	-0.60129,	 0.36097
	-0.59813,	 0.36496
	-0.59493,	 0.36891
END
BEGIN
	-0.031634,	 0.13233
	-0.029765,	 0.13045
	-0.02793,	 0.12855
	-0.026131,	 0.12661
	-0.024366,	 0.12464
	-0.022637,	 0.12265
	-0.020945,	 0.12062
	-0.019289,	 0.11857
	-0.01767,	 0.1165
	-0.01609,	 0.1144
	-0.014547,	 0.11227
	-0.013043,	 0.11012
	-0.011579,	 0.10794
	-0.010153,	 0.10574
	-0.0087684,	 0.10352
	-0.0074237,	 0.10128
	-0.0061199,	 0.099015
	-0.0048573,	 0.096728
	-0.0036363,	 0.094422
	-0.0024573,	 0.092096
	-0.0013206,	 0.089751
	-0.00022667,	 0.087388
	 0.00082429,	 0.085007
	 0.0018319,	 0.08261
	 0.0027958,	 0.080197
	 0.0037158,	 0.077768
	 0.0045916,	 0.075326
	 0.0054228,	 0.072869
	 0.0062093,	 0.070399
	 0.0069507,	 0.067917
	 0.0076469,	 0.065423
	 0.0082976,	 0.062919
	 0.0089026,	 0.060404
	 0.0094617,	 0.05788
	 0.0099748,	 0.055348
	 0.010442,	 0.052808
	 0.010862,	 0.05026
	 0.011236,	 0.047707
	 0.011563,	 0.045148
	 0.011844,	 0.042584
	 0.012078,	 0.040016
	 0.012264,	 0.037446
	 0.012404,	 0.034873
	 0.012497,	 0.032298
	 0.012542,	 0.029722
	 0.012541,	 0.027147
	 0.012492,	 0.024572
	 0.012396,	 0.021999
	 0.012253,	 0.019429
	 0.012063,	 0.016861
	 0.011825,	 0.014297
	 0.011541,	 0.011739
	 0.011209,	 0.0091853
	 0.010831,	 0.0066383
	 0.010406,	 0.0040984
	 0.0099344,	 0.0015663
	 0.0094161,	-0.00095706
	 0.0088513,	-0.003471
	 0.0082402,	-0.0059747
	 0.007583,	-0.0084675
	 0.0068798,	-0.010948
	 0.0061308,	-0.013417
	 0.0053363,	-0.015872
	 0.0044964,	-0.018313
	 0.0036113,	-0.020739
	 0.0026814,	-0.02315
	 0.0017068,	-0.025544
	 0.00068784,	-0.027922
	-0.00037521,	-0.030281
	-0.0014821,	-0.032622
	-0.0026324,	-0.034944
	-0.003826,	-0.037246
	-0.0050624,	-0.039526
	-0.0063414,	-0.041786
	-0.0076625,	-0.044023
	-0.0090254,	-0.046238
	-0.01043,	-0.048429
	-0.011875,	-0.050595
	-0.013361,	-0.052737
	-0.014887,	-0.054853
	-0.016453,	-0.056943
	-0.018059,	-0.059006
	-0.019703,	-0.061041
	-0.021386,	-0.063048
	-0.023107,	-0.065026
	-0.024865,	-0.066975
	-0.02666,	-0.068893
	-0.028492,	-0.070781
	-0.03036,	-0.072637
	-0.032263,	-0.074461
	-0.034201,	-0.076253
	-0.036174,	-0.078012
	-0.038181,	-0.079737
	-0.04022,	-0.081427
	-0.042293,	-0.083083
	-0.044398,	-0.084703
	-0.046534,	-0.086287
END
BEGIN
	-0.099844,	 0.69432
	-0.094742,	 0.69506
	-0.089637,	 0.69575
	-0.084531,	 0.6964
	-0.079424,	 0.69702
	-0.074315,	 0.69759
	-0.069205,	 0.69813
	-0.064094,	 0.69862
	-0.058983,	 0.69908
	-0.053872,	 0.69949
	-0.048762,	 0.69987
	-0.043651,	 0.70021
	-0.038542,	 0.7005
	-0.033433,	 0.70076
	-0.028326,	 0.70098
	-0.02322,	 0.70116
	-0.018115,	 0.70131
	-0.013013,	 0.70141
	-0.0079133,	 0.70147
	-0.0028159,	 0.7015
	 0.0022789,	 0.70149
	 0.0073707,	 0.70144
	 0.012459,	 0.70136
	 0.017544,	 0.70123
	 0.022626,	 0.70107
	 0.027704,	 0.70087
	 0.032777,	 0.70063
	 0.037847,	 0.70036
	 0.042911,	 0.70004
	 0.047971,	 0.6997
	 0.053027,	 0.69931
	 0.058077,	 0.69889
	 0.063121,	 0.69843
	 0.06816,	 0.69793
	 0.073194,	 0.6974
	 0.078221,	 0.69683
	 0.083242,	 0.69622
	 0.088257,	 0.69558
	 0.093266,	 0.6949
	 0.098268,	 0.69419
	 0.10326,	 0.69344
	 0.10825,	 0.69265
	 0.11323,	 0.69183
	 0.1182,	 0.69097
	 0.12316,	 0.69008
	 0.12812,	 0.68915
	 0.13307,	 0.68819
	 0.13801,	 0.68719
	 0.14295,	 0.68616
	 0.14787,	 0.68509
	 0.15279,	 0.68399
	 0.15769,	 0.68285
	 0.16259,	 0.68167
	 0.16748,	 0.68047
	 0.17236,	 0.67922
	 0.17723,	 0.67795
	 0.18209,	 0.67663
	 0.18694,	 0.67529
	 0.19178,	 0.67391
	 0.19661,	 0.67249
	 0.20144,	 0.67104
	 0.20624,	 0.66956
	 0.21104,	 0.66804
	 0.21583,	 0.66649
	 0.22061,	 0.66491
	 0.22538,	 0.66329
	 0.23013,	 0.66163
	 0.23487,	 0.65995
	 0.2396,	 0.65823
	 0.24432,	 0.65647
	 0.24903,	 0.65469
	 0.25373,	 0.65287
	 0.25841,	 0.65101
	 0.26308,	 0.64912
	 0.26774,	 0.6472
	 0.27239,	 0.64525
	 0.27702,	 0.64326
	 0.28164,	 0.64124
	 0.28624,	 0.63919
	 0.29083,	 0.6371
	 0.29541,	 0.63498
	 0.29998,	 0.63283
	 0.30453,	 0.63064
	 0.30906,	 0.62842
	 0.31359,	 0.62617
	 0.31809,	 0.62388
	 0.32259,	 0.62157
	 0.32706,	 0.61922
	 0.33153,	 0.61683
	 0.33597,	 0.61442
	 0.3404,	 0.61197
	 0.34482,	 0.60949
	 0.34922,	 0.60697
	 0.3536,	 0.60443
	 0.35797,	 0.60185
	 0.36232,	 0.59924
	 0.36666,	 0.59659
END
BEGIN
	-0.67907,	-0.091463
	-0.68059,	-0.086916
	-0.68206,	-0.082342
	-0.68349,	-0.077743
	-0.68487,	-0.073118
	-0.68622,	-0.068469
	-0.68751,	-0.063796
	-0.68877,	-0.059099
	-0.68998,	-0.054378
	-0.69114,	-0.049636
	-0.69226,	-0.044871
	-0.69333,	-0.040085
	-0.69435,	-0.035278
	-0.69533,	-0.03045
	-0.69626,	-0.025604
	-0.69714,	-0.020738
	-0.69798,	-0.015853
	-0.69876,	-0.010951
	-0.69949,	-0.0060319
	-0.70018,	-0.0010962
	-0.70081,	 0.0038553
	-0.7014,	 0.008822
	-0.70193,	 0.013803
	-0.70241,	 0.018798
	-0.70284,	 0.023806
	-0.70322,	 0.028826
	-0.70355,	 0.033858
	-0.70383,	 0.038901
	-0.70405,	 0.043954
	-0.70422,	 0.049017
	-0.70433,	 0.054088
	-0.7044,	 0.059167
	-0.70441,	 0.064254
	-0.70436,	 0.069347
	-0.70426,	 0.074445
	-0.70411,	 0.079549
	-0.7039,	 0.084656
	-0.70364,	 0.089767
	-0.70333,	 0.094881
	-0.70296,	 0.099996
	-0.70253,	 0.10511
	-0.70205,	 0.11022
	-0.70152,	 0.11534
	-0.70093,	 0.12045
	-0.70028,	 0.12557
	-0.69958,	 0.13067
	-0.69882,	 0.13578
	-0.69801,	 0.14088
	-0.69715,	 0.14597
	-0.69623,	 0.15106
	-0.69525,	 0.15615
	-0.69422,	 0.16122
	-0.69314,	 0.16628
	-0.692,	 0.17134
	-0.6908,	 0.17638
	-0.68955,	 0.18142
	-0.68825,	 0.18644
	-0.68689,	 0.19145
	-0.68548,	 0.19644
	-0.68401,	 0.20143
	-0.68249,	 0.20639
	-0.68092,	 0.21134
	-0.67929,	 0.21627
	-0.67761,	 0.22119
	-0.67588,	 0.22609
	-0.6741,	 0.23097
	-0.67226,	 0.23583
	-0.67037,	 0.24066
	-0.66843,	 0.24548
	-0.66644,	 0.25027
	-0.6644,	 0.25505
	-0.66231,	 0.25979
	-0.66016,	 0.26452
	-0.65797,	 0.26922
	-0.65573,	 0.27389
	-0.65344,	 0.27854
	-0.6511,	 0.28316
	-0.64872,	 0.28775
	-0.64628,	 0.29231
	-0.6438,	 0.29685
	-0.64127,	 0.30135
	-0.6387,	 0.30583
	-0.63608,	 0.31027
	-0.63342,	 0.31468
	-0.63071,	 0.31906
	-0.62795,	 0.32341
	-0.62516,	 0.32773
	-0.62232,	 0.33201
	-0.61944,	 0.33625
	-0.61651,	 0.34046
	-0.61355,	 0.34464
	-0.61054,	 0.34877
	-0.6075,	 0.35288
	-0.60441,	 0.35694
	-0.60129,	 0.36097
	-0.59813,	 0.36496
	-0.59493,	 0.36891
END
BEGIN
	 0.14105,	 0.0074426
	 0.13861,	 0.0067169
	 0.13618,	 0.0060201
	 0.13374,	 0.0053523
	 0.1313,	 0.0047131
	 0.12885,	 0.0041026
	 0.12641,	 0.0035206
	 0.12396,	 0.0029669
	 0.12151,	 0.0024415
	 0.11906,	 0.0019441
	 0.11661,	 0.0014748
	 0.11416,	 0.0010332
	 0.1117,	 0.00061942
	 0.10925,	 0.00023316
	 0.1068,	-0.00012566
	 0.10435,	-0.00045717
	 0.1019,	-0.00076151
	 0.09945,	-0.0010388
	 0.097,	-0.0012892
	 0.094551,	-0.0015128
	 0.092104,	-0.0017098
	 0.089658,	-0.0018802
	 0.087214,	-0.0020243
	 0.084773,	-0.002142
	 0.082333,	-0.0022337
	 0.079896,	-0.0022993
	 0.077461,	-0.0023391
	 0.075029,	-0.0023531
	 0.0726,	-0.0023414
	 0.070174,	-0.0023043
	 0.067752,	-0.0022417
	 0.065332,	-0.0021538
	 0.062917,	-0.0020408
	 0.060505,	-0.0019027
	 0.058097,	-0.0017396
	 0.055693,	-0.0015517
	 0.053293,	-0.0013391
	 0.050898,	-0.0011018
	 0.048507,	-0.00083998
	 0.04612,	-0.00055373
	 0.043739,	-0.00024314
	 0.041362,	 9.169e-005
	 0.03899,	 0.00045068
	 0.036624,	 0.00083373
	 0.034262,	 0.0012408
	 0.031906,	 0.0016717
	 0.029556,	 0.0021264
	 0.027211,	 0.0026049
	 0.024872,	 0.003107
	 0.022539,	 0.0036327
	 0.020212,	 0.0041819
	 0.017891,	 0.0047546
	 0.015576,	 0.0053506
	 0.013268,	 0.00597
	 0.010966,	 0.0066126
	 0.0086704,	 0.0072784
	 0.0063816,	 0.0079674
	 0.0040996,	 0.0086795
	 0.0018245,	 0.0094146
	-0.00044363,	 0.010173
	-0.0027047,	 0.010954
	-0.0049585,	 0.011758
	-0.007205,	 0.012585
	-0.0094441,	 0.013435
	-0.011676,	 0.014307
	-0.013899,	 0.015203
	-0.016116,	 0.016121
	-0.018324,	 0.017062
	-0.020524,	 0.018025
	-0.022716,	 0.019012
	-0.0249,	 0.020021
	-0.027076,	 0.021053
	-0.029243,	 0.022107
	-0.031402,	 0.023184
	-0.033552,	 0.024284
	-0.035693,	 0.025407
	-0.037826,	 0.026552
	-0.039949,	 0.02772
	-0.042063,	 0.028911
	-0.044168,	 0.030124
	-0.046264,	 0.03136
	-0.04835,	 0.032619
	-0.050426,	 0.033901
	-0.052493,	 0.035205
	-0.05455,	 0.036532
	-0.056596,	 0.037882
	-0.058632,	 0.039255
	-0.060658,	 0.040651
	-0.062674,	 0.04207
	-0.064679,	 0.043512
	-0.066673,	 0.044977
	-0.068656,	 0.046465
	-0.070628,	 0.047976
	-0.072588,	 0.04951
	-0.074537,	 0.051067
	-0.076475,	 0.052648
	-0.0784,	 0.054252
END
BEGIN
	-0.10078,	 0.69383
	-0.095693,	 0.69457
	-0.090598,	 0.69528
	-0.085501,	 0.69594
	-0.080403,	 0.69657
	-0.075302,	 0.69715
	-0.070201,	 0.6977
	-0.065099,	 0.69821
	-0.059997,	 0.69867
	-0.054894,	 0.6991
	-0.049791,	 0.69949
	-0.044689,	 0.69984
	-0.039587,	 0.70015
	-0.034486,	 0.70042
	-0.029386,	 0.70065
	-0.024287,	 0.70085
	-0.01919,	 0.701
	-0.014095,	 0.70112
	-0.0090013,	 0.7012
	-0.0039103,	 0.70124
	 0.0011782,	 0.70124
	 0.0062639,	 0.70121
	 0.011347,	 0.70113
	 0.016426,	 0.70102
	 0.021502,	 0.70088
	 0.026575,	 0.70069
	 0.031643,	 0.70047
	 0.036707,	 0.70021
	 0.041768,	 0.69991
	 0.046823,	 0.69958
	 0.051874,	 0.69921
	 0.05692,	 0.6988
	 0.061961,	 0.69835
	 0.066996,	 0.69787
	 0.072026,	 0.69735
	 0.077051,	 0.6968
	 0.082069,	 0.69621
	 0.087081,	 0.69558
	 0.092087,	 0.69492
	 0.097087,	 0.69422
	 0.10207,	 0.69349
	 0.10706,	 0.69272
	 0.11204,	 0.69191
	 0.11701,	 0.69107
	 0.12198,	 0.6902
	 0.12693,	 0.68928
	 0.13188,	 0.68834
	 0.13682,	 0.68736
	 0.14176,	 0.68634
	 0.14668,	 0.68528
	 0.1516,	 0.6842
	 0.15651,	 0.68308
	 0.1614,	 0.68192
	 0.16629,	 0.68073
	 0.17118,	 0.6795
	 0.17605,	 0.67824
	 0.18091,	 0.67694
	 0.18576,	 0.67561
	 0.19061,	 0.67425
	 0.19544,	 0.67285
	 0.20026,	 0.67142
	 0.20508,	 0.66995
	 0.20988,	 0.66845
	 0.21467,	 0.66691
	 0.21945,	 0.66535
	 0.22422,	 0.66374
	 0.22898,	 0.66211
	 0.23373,	 0.66044
	 0.23846,	 0.65873
	 0.24319,	 0.65699
	 0.2479,	 0.65522
	 0.2526,	 0.65342
	 0.25729,	 0.65158
	 0.26197,	 0.64971
	 0.26663,	 0.6478
	 0.27128,	 0.64586
	 0.27592,	 0.64389
	 0.28055,	 0.64189
	 0.28516,	 0.63985
	 0.28976,	 0.63777
	 0.29435,	 0.63567
	 0.29892,	 0.63353
	 0.30348,	 0.63136
	 0.30802,	 0.62916
	 0.31256,	 0.62692
	 0.31707,	 0.62465
	 0.32157,	 0.62235
	 0.32606,	 0.62001
	 0.33053,	 0.61764
	 0.33499,	 0.61524
	 0.33943,	 0.6128
	 0.34386,	 0.61034
	 0.34827,	 0.60784
	 0.35266,	 0.6053
	 0.35704,	 0.60274
	 0.3614,	 0.60014
	 0.36575,	 0.59751
END
BEGIN
	-0.031885,	 0.13117
	-0.030022,	 0.12929
	-0.028193,	 0.12738
	-0.026399,	 0.12545
	-0.02464,	 0.12348
	-0.022917,	 0.12149
	-0.02123,	 0.11947
	-0.01958,	 0.11742
	-0.017968,	 0.11535
	-0.016392,	 0.11325
	-0.014855,	 0.11112
	-0.013357,	 0.10897
	-0.011898,	 0.1068
	-0.010478,	 0.1046
	-0.0090988,	 0.10238
	-0.0077596,	 0.10013
	-0.0064611,	 0.097875
	-0.0052038,	 0.09559
	-0.0039882,	 0.093285
	-0.0028144,	 0.090961
	-0.001683,	 0.088618
	-0.00059421,	 0.086256
	 0.00045157,	 0.083878
	 0.001454,	 0.081482
	 0.0024129,	 0.079071
	 0.0033278,	 0.076644
	 0.0041985,	 0.074203
	 0.0050247,	 0.071748
	 0.0058062,	 0.06928
	 0.0065427,	 0.0668
	 0.007234,	 0.064308
	 0.0078798,	 0.061805
	 0.00848,	 0.059293
	 0.0090343,	 0.056771
	 0.0095426,	 0.05424
	 0.010005,	 0.051702
	 0.01042,	 0.049156
	 0.01079,	 0.046604
	 0.011112,	 0.044047
	 0.011388,	 0.041485
	 0.011617,	 0.03892
	 0.011799,	 0.036351
	 0.011934,	 0.033779
	 0.012023,	 0.031206
	 0.012064,	 0.028633
	 0.012057,	 0.026059
	 0.012004,	 0.023486
	 0.011904,	 0.020915
	 0.011756,	 0.018346
	 0.011561,	 0.01578
	 0.01132,	 0.013219
	 0.011031,	 0.010662
	 0.010695,	 0.00811
	 0.010313,	 0.0055648
	 0.0098831,	 0.0030266
	 0.00940701736 ,	 0.000496324709 
	 0.0088843,	-0.0020253
	 0.0083152,	-0.0045375
	 0.0076998,	-0.0070396
	 0.0070383,	-0.0095306
	 0.0063308,	-0.01201
	 0.0055776,	-0.014477
	 0.0047788,	-0.01693
	 0.0039346,	-0.01937
	 0.0030453,	-0.021794
	 0.0021111,	-0.024203
	 0.0011323,	-0.026596
	 0.00010906,	-0.028972
	-0.00095824,	-0.03133
	-0.0020694,	-0.033669
	-0.003224,	-0.035989
	-0.0044218,	-0.038289
	-0.0056624,	-0.040568
	-0.0069456,	-0.042826
	-0.008271,	-0.045062
	-0.0096382,	-0.047275
	-0.011047,	-0.049464
	-0.012496,	-0.05163
	-0.013987,	-0.05377
	-0.015517,	-0.055884
	-0.017088,	-0.057973
	-0.018697,	-0.060034
	-0.020346,	-0.062068
	-0.022033,	-0.064073
	-0.023758,	-0.06605
	-0.025521,	-0.067997
	-0.02732,	-0.069914
	-0.029157,	-0.0718
	-0.031029,	-0.073655
	-0.032936,	-0.075478
	-0.034879,	-0.077268
	-0.036856,	-0.079025
	-0.038867,	-0.080749
	-0.040912,	-0.082438
	-0.042989,	-0.084092
	-0.045098,	-0.085711
	-0.047239,	-0.087294
END
BEGIN
	-0.031634,	 0.13233
	-0.029765,	 0.13045
	-0.02793,	 0.12855
	-0.026131,	 0.12661
	-0.024366,	 0.12464
	-0.022637,	 0.12265
	-0.020945,	 0.12062
	-0.019289,	 0.11857
	-0.01767,	 0.1165
	-0.01609,	 0.1144
	-0.014547,	 0.11227
	-0.013043,	 0.11012
	-0.011579,	 0.10794
	-0.010153,	 0.10574
	-0.0087684,	 0.10352
	-0.0074237,	 0.10128
	-0.0061199,	 0.099015
	-0.0048573,	 0.096728
	-0.0036363,	 0.094422
	-0.0024573,	 0.092096
	-0.0013206,	 0.089751
	-0.00022667,	 0.087388
	 0.00082429,	 0.085007
	 0.0018319,	 0.08261
	 0.0027958,	 0.080197
	 0.0037158,	 0.077768
	 0.0045916,	 0.075326
