CITIFILE A.01.01
#Momentum: B.11.40.482 (*) built: Dec  2 2014 
#Momentum Date and Time: Mon Nov 09 15:41:12 2015

NAME Momentum.SP

#  mode: MW    project: proj    reference: S_50

CONSTANT NBR_OF_PORTS 4

CONSTANT NORMALIZATION 1

VAR freq MAG 5

DATA S[1,1] RI
DATA S[1,2] RI
DATA S[1,3] RI
DATA S[1,4] RI
DATA S[2,1] RI
DATA S[2,2] RI
DATA S[2,3] RI
DATA S[2,4] RI
DATA S[3,1] RI
DATA S[3,2] RI
DATA S[3,3] RI
DATA S[3,4] RI
DATA S[4,1] RI
DATA S[4,2] RI
DATA S[4,3] RI
DATA S[4,4] RI
DATA PORTZ[1] RI
DATA PORTZ[2] RI
DATA PORTZ[3] RI
DATA PORTZ[4] RI

VAR_LIST_BEGIN
	 1500000000
	 1566666667
	 1600000000
	 1633333333
	 1700000000
VAR_LIST_END

BEGIN
	 0.138266059,	 0.00642635434
	 0.0597279389,	-0.0021757952
	 0.0216136122,	 0.00347776146
	-0.0149031272,	 0.0151984303
	-0.0812584355,	 0.0561308312
END
BEGIN
	-0.679076224,	-0.0914629415
	-0.704411365,	 0.0642537284
	-0.697119973,	 0.145983288
	-0.675884966,	 0.226093084
	-0.594934075,	 0.368911211
END
BEGIN
	-0.0316337059,	 0.132337877
	 0.00890258527,	 0.0604041651
	 0.0122528211,	 0.0194285623
	 0.00361131285,	-0.0207393921
	-0.0465340514,	-0.086287312
END
BEGIN
	-0.0998440541,	 0.694326148
	 0.0631211767,	 0.698431612
	 0.142961857,	 0.686138623
	 0.220614339,	 0.664911166
	 0.366661367,	 0.596596141
END
BEGIN
	-0.679076224,	-0.0914629415
	-0.704411365,	 0.0642537284
	-0.697119973,	 0.145983288
	-0.675884966,	 0.226093084
	-0.594934075,	 0.368911211
END
BEGIN
	 0.141050224,	 0.00744260427
	 0.0629167455,	-0.00204078812
	 0.0248723854,	 0.00310698729
	-0.0116755913,	 0.0143071594
	-0.0784001014,	 0.0542516652
END
BEGIN
	-0.100786165,	 0.693830094
	 0.0619608516,	 0.698358255
	 0.141771149,	 0.686317796
	 0.219455224,	 0.665350676
	 0.365752187,	 0.597511674
END
BEGIN
	-0.0318847594,	 0.131174109
	 0.00847996801,	 0.0592926688
	 0.0117561658,	 0.0183462219
	 0.00304529654,	-0.0217941784
	-0.0472387817,	-0.0872938329
END
BEGIN
	-0.0316337059,	 0.132337877
	 0.00890258526,	 0.0604041651
	 0.0122528212,	 0.0194285623
	 0.00361131286,	-0.0207393921
	-0.0465340514,	-0.0862873119
END
BEGIN
	-0.100786165,	 0.693830094
	 0.0619608516,	 0.698358255
	 0.141771149,	 0.686317796
	 0.219455224,	 0.665350676
	 0.365752187,	 0.597511674
END
BEGIN
	 0.140096207,	 0.00657348902
	 0.0617171989,	-0.00244439166
	 0.0236268746,	 0.00297564579
	-0.012908077,	 0.0144581173
	-0.0794251941,	 0.0549418887
END
BEGIN
	-0.678891895,	-0.0927395335
	-0.70453602,	 0.0628822911
	-0.697410711,	 0.144594109
	-0.67634653,	 0.22470694
	-0.595743043,	 0.367597256
END
BEGIN
	-0.0998440541,	 0.694326148
	 0.0631211767,	 0.698431612
	 0.142961857,	 0.686138623
	 0.220614339,	 0.664911166
	 0.366661367,	 0.596596141
END
BEGIN
	-0.0318847594,	 0.131174109
	 0.008479968,	 0.0592926688
	 0.0117561658,	 0.0183462219
	 0.00304529655,	-0.0217941784
	-0.0472387817,	-0.0872938328
END
BEGIN
	-0.678891895,	-0.0927395335
	-0.70453602,	 0.0628822911
	-0.697410711,	 0.144594109
	-0.67634653,	 0.22470694
	-0.595743043,	 0.367597256
END
BEGIN
	 0.139354382,	 0.00669222282
	 0.0608818299,	-0.00215065775
	 0.022780368,	 0.00337966866
	-0.0137355847,	 0.014976448
	-0.0801243557,	 0.0556600448
END
BEGIN
	 50 ,	 0 
	 50 ,	 0 
	 50 ,	 0 
	 50 ,	 0 
	 50 ,	 0 
END
BEGIN
	 50 ,	 0 
	 50 ,	 0 
	 50 ,	 0 
	 50 ,	 0 
	 50 ,	 0 
END
BEGIN
	 50 ,	 0 
	 50 ,	 0 
	 50 ,	 0 
	 50 ,	 0 
	 50 ,	 0 
END
BEGIN
	 50 ,	 0 
	 50 ,	 0 
	 50 ,	 0 
	 50 ,	 0 
	 50 ,	 0 
END
