CITIFILE A.01.01
#Momentum: B.11.40.482 (*) built: Dec  2 2014 
#Momentum Date and Time: Mon Nov 09 15:41:10 2015

NAME PortSet1/TwoP0_Dsolver_data/first_odd_mode_is_1/most_even_mode_is_1/PMLG4/LS0

CONSTANT NBR_OF_PORTS 4

VAR freq MAG 5

DATA GAMMA_1[1] RI
DATA GAMMA_1[2] RI
DATA Z0_1[1,1] RI
DATA Z0_1[1,2] RI
DATA Z0_1[2,1] RI
DATA Z0_1[2,2] RI
DATA LAMBADAI_1[1,1] RI
DATA LAMBADAI_1[1,2] RI
DATA LAMBADAI_1[2,1] RI
DATA LAMBADAI_1[2,2] RI
DATA Zcir_1[1,1] RI
DATA Zcir_1[1,2] RI
DATA Zcir_1[2,1] RI
DATA Zcir_1[2,2] RI
DATA Ycir_1[1,1] RI
DATA Ycir_1[1,2] RI
DATA Ycir_1[2,1] RI
DATA Ycir_1[2,2] RI

VAR_LIST_BEGIN
	 1500000000
	 1515000000
	 1530000000
	 1545000000
	 1700000000
VAR_LIST_END

BEGIN
	-0,	 51.00528843
	-0,	 51.51634076
	-0,	 52.0274184
	-0,	 52.53852154
	-0,	 57.82145045
END
BEGIN
	-0,	 51.00528843
	-0,	 51.51634076
	-0,	 52.0274184
	-0,	 52.53852154
	-0,	 57.82145045
END
BEGIN
	 53.255278450702171 ,	 0 
	 53.255558540035018 ,	 0 
	 53.255843144612435 ,	 0 
	 53.256132359358411 ,	 0 
	 53.259393294153661 ,	 0 
END
BEGIN
	 0 ,	 0 
	 0 ,	 0 
	 0 ,	 0 
	 0 ,	 0 
	 0 ,	 0 
END
BEGIN
	 0 ,	 0 
	 0 ,	 0 
	 0 ,	 0 
	 0 ,	 0 
	 0 ,	 0 
END
BEGIN
	 53.255278450702328 ,	 0 
	 53.255558540035167 ,	 0 
	 53.25584314461257 ,	 0 
	 53.256132359367534 ,	 0 
	 53.259393294162038 ,	 0 
END
BEGIN
	 0,	 51.00528843
	 0,	 51.51634076
	 0,	 52.0274184
	 0,	 52.53852154
	 0,	 57.82145045
END
BEGIN
	 0 ,	 0 
	 0 ,	 0 
	 0 ,	 0 
	 0 ,	 0 
	 0 ,	 0 
END
BEGIN
	 0 ,	 0 
	 0 ,	 0 
	 0 ,	 0 
	 0 ,	 0 
	 0 ,	 0 
END
BEGIN
	 0,	 51.00528843
	 0,	 51.51634076
	 0,	 52.0274184
	 0,	 52.53852154
	 0,	 57.82145045
END
BEGIN
	 2.40488283508113e-019 ,	 7.6502585382856e-010 
	 -9.50150879208146e-021 ,	 7.65044719624038e-010 
	 1.48654315152434e-019 ,	 7.65063731602102e-010 
	 1.05686371061761e-018 ,	 7.650828916974e-010 
	 -2.13851120087732e-019 ,	 7.65289542598268e-010 
END
BEGIN
	 0 ,	 0 
	 0 ,	 0 
	 0 ,	 0 
	 0 ,	 0 
	 0 ,	 0 
END
BEGIN
	 0 ,	 0 
	 0 ,	 0 
	 0 ,	 0 
	 0 ,	 0 
	 0 ,	 0 
END
BEGIN
	 2.56489067895059e-019 ,	 7.65025853828562e-010 
	 1.18164334005541e-019 ,	 7.65044719624041e-010 
	 3.56026951368545e-019 ,	 7.65063731602104e-010 
	 8.59807861423451e-019 ,	 7.65082891697661e-010 
	 1.20807355636279e-018 ,	 7.65289542598506e-010 
END
BEGIN
	 -1.20345500901349e-017 ,	 3.82835364111924e-008 
	 4.75470900499831e-019 ,	 3.82840777946168e-008 
	 -7.43882336866636e-018 ,	 3.82846199878217e-008 
	 -5.28860334178202e-017 ,	 3.82851629507327e-008 
	 1.06999156847608e-017 ,	 3.82908145483234e-008 
END
BEGIN
	 0 ,	 0 
	 0 ,	 0 
	 0 ,	 0 
	 0 ,	 0 
	 0 ,	 0 
END
BEGIN
	 0 ,	 0 
	 0 ,	 0 
	 0 ,	 0 
	 0 ,	 0 
	 0 ,	 0 
END
BEGIN
	 -1.2835263698204e-017 ,	 3.82835364111923e-008 
	 -5.91313480059085e-018 ,	 3.82840777946167e-008 
	 -1.78159752913974e-017 ,	 3.82846199878216e-008 
	 -4.30252518232051e-017 ,	 3.82851629507327e-008 
	 -6.04452536360994e-017 ,	 3.82908145483233e-008 
END
CITIFILE A.01.01
NAME PortSet2/TwoP0_Dsolver_data/first_odd_mode_is_1/most_even_mode_is_1/PMLG4/LS0

VAR freq MAG 5

DATA GAMMA_1[1] RI
DATA GAMMA_1[2] RI
DATA Z0_1[1,1] RI
DATA Z0_1[1,2] RI
DATA Z0_1[2,1] RI
DATA Z0_1[2,2] RI
DATA LAMBADAI_1[1,1] RI
DATA LAMBADAI_1[1,2] RI
DATA LAMBADAI_1[2,1] RI
DATA LAMBADAI_1[2,2] RI
DATA Zcir_1[1,1] RI
DATA Zcir_1[1,2] RI
DATA Zcir_1[2,1] RI
DATA Zcir_1[2,2] RI
DATA Ycir_1[1,1] RI
DATA Ycir_1[1,2] RI
DATA Ycir_1[2,1] RI
DATA Ycir_1[2,2] RI

VAR_LIST_BEGIN
	 1500000000
	 1515000000
	 1530000000
	 1545000000
	 1700000000
VAR_LIST_END

BEGIN
	-0,	 51.00528843
	-0,	 51.51634076
	-0,	 52.0274184
	-0,	 52.53852154
	-0,	 57.82145045
END
BEGIN
	-0,	 51.00528843
	-0,	 51.51634076
	-0,	 52.0274184
	-0,	 52.53852154
	-0,	 57.82145045
END
BEGIN
	 53.255278450702171 ,	 0 
	 53.255558540035018 ,	 0 
	 53.255843144612435 ,	 0 
	 53.256132359358411 ,	 0 
	 53.259393294153661 ,	 0 
END
BEGIN
	 0 ,	 0 
	 0 ,	 0 
	 0 ,	 0 
	 0 ,	 0 
	 0 ,	 0 
END
BEGIN
	 0 ,	 0 
	 0 ,	 0 
	 0 ,	 0 
	 0 ,	 0 
	 0 ,	 0 
END
BEGIN
	 53.255278450702328 ,	 0 
	 53.255558540035167 ,	 0 
	 53.25584314461257 ,	 0 
	 53.256132359367534 ,	 0 
	 53.259393294162038 ,	 0 
END
BEGIN
	 0,	 51.00528843
	 0,	 51.51634076
	 0,	 52.0274184
	 0,	 52.53852154
	 0,	 57.82145045
END
BEGIN
	 0 ,	 0 
	 0 ,	 0 
	 0 ,	 0 
	 0 ,	 0 
	 0 ,	 0 
END
BEGIN
	 0 ,	 0 
	 0 ,	 0 
	 0 ,	 0 
	 0 ,	 0 
	 0 ,	 0 
END
BEGIN
	 0,	 51.00528843
	 0,	 51.51634076
	 0,	 52.0274184
	 0,	 52.53852154
	 0,	 57.82145045
END
BEGIN
	 2.40488283508113e-019 ,	 7.6502585382856e-010 
	 -9.50150879208146e-021 ,	 7.65044719624038e-010 
	 1.48654315152434e-019 ,	 7.65063731602102e-010 
	 1.05686371061761e-018 ,	 7.650828916974e-010 
	 -2.13851120087732e-019 ,	 7.65289542598268e-010 
END
BEGIN
	 0 ,	 0 
	 0 ,	 0 
	 0 ,	 0 
	 0 ,	 0 
	 0 ,	 0 
END
BEGIN
	 0 ,	 0 
	 0 ,	 0 
	 0 ,	 0 
	 0 ,	 0 
	 0 ,	 0 
END
BEGIN
	 2.56489067895059e-019 ,	 7.65025853828562e-010 
	 1.18164334005541e-019 ,	 7.65044719624041e-010 
	 3.56026951368545e-019 ,	 7.65063731602104e-010 
	 8.59807861423451e-019 ,	 7.65082891697661e-010 
	 1.20807355636279e-018 ,	 7.65289542598506e-010 
END
BEGIN
	 -1.20345500901349e-017 ,	 3.82835364111924e-008 
	 4.75470900499831e-019 ,	 3.82840777946168e-008 
	 -7.43882336866636e-018 ,	 3.82846199878217e-008 
	 -5.28860334178202e-017 ,	 3.82851629507327e-008 
	 1.06999156847608e-017 ,	 3.82908145483234e-008 
END
BEGIN
	 0 ,	 0 
	 0 ,	 0 
	 0 ,	 0 
	 0 ,	 0 
	 0 ,	 0 
END
BEGIN
	 0 ,	 0 
	 0 ,	 0 
	 0 ,	 0 
	 0 ,	 0 
	 0 ,	 0 
END
BEGIN
	 -1.2835263698204e-017 ,	 3.82835364111923e-008 
	 -5.91313480059085e-018 ,	 3.82840777946167e-008 
	 -1.78159752913974e-017 ,	 3.82846199878216e-008 
	 -4.30252518232051e-017 ,	 3.82851629507327e-008 
	 -6.04452536360994e-017 ,	 3.82908145483233e-008 
END
